# HZ S RI R 50
50000 -0.997492253 0.004784447
248100 -0.997746229 0.03248373
446300 -0.996347308 0.054505962
644500 -0.994947135 0.076168037
842600 -0.992865383 0.097670845
1040800 -0.990301787 0.119052067
1239000 -0.9874233 0.140216901
1437100 -0.983920812 0.161226496
1635300 -0.979898452 0.182209655
1833500 -0.975569307 0.20290853
2031600 -0.970818638 0.2235554
2229800 -0.965725719 0.244008421
2428000 -0.959887742 0.264311194
2626100 -0.953713238 0.284537494
2824300 -0.947099864 0.304576426
3022500 -0.940404117 0.324258387
3220600 -0.932770311 0.344086647
3418800 -0.925014257 0.363531678
3617000 -0.916847586 0.382713884
3815100 -0.908276498 0.401826977
4013300 -0.899412214 0.420926719
4211500 -0.889904201 0.439379096
4409600 -0.880153536 0.457907199
4607800 -0.870084106 0.476013302
4806000 -0.859351217 0.494146227
5004100 -0.848370194 0.511675059
5202300 -0.836944639 0.52907902
5400500 -0.825350582 0.546415328
5598600 -0.813127219 0.563296973
5796800 -0.800886988 0.579656362
5995000 -0.788847804 0.595926642
6193100 -0.776136815 0.611192166
6391300 -0.766074061 0.625646173
6589500 -0.752074599 0.642313241
6787600 -0.732402503 0.659802854
6985800 -0.715708315 0.676298558
7184000 -0.701338768 0.690176188
7382100 -0.686432778 0.703148007
7580300 -0.670854032 0.715920686
7778500 -0.654868006 0.72882837
7976600 -0.638171315 0.741204023
8174800 -0.621206998 0.753012001
8373000 -0.604099631 0.764478087
8571100 -0.58630377 0.775356531
8769300 -0.568754971 0.785848736
8967500 -0.550557851 0.795448482
9165600 -0.532252609 0.804708003
9363800 -0.513503372 0.813139736
9562000 -0.49494788 0.821127712
9760100 -0.475901037 0.828419506
9958300 -0.457022875 0.835292577
10156500 -0.4382779 0.840971648
10354600 -0.419168084 0.846604645
10552800 -0.400105953 0.851188123
10751000 -0.381526052 0.854929864
10949100 -0.362973183 0.858395874
11147300 -0.344070971 0.861097693
11345500 -0.325785785 0.863035798
11543600 -0.307565152 0.864651143
11741800 -0.289633035 0.865443348
11940000 -0.271983295 0.865838289
12138100 -0.25444588 0.865750312
12336300 -0.23758623 0.864863514
12534500 -0.220700994 0.863752484
12732600 -0.204296067 0.861971318
12930800 -0.188292652 0.860218942
13129000 -0.172587558 0.8576774
13327100 -0.157118245 0.854813873
13525300 -0.142532646 0.851696074
13723500 -0.127641931 0.848246276
13921600 -0.113754451 0.844526648
14119800 -0.100016646 0.840577304
14318000 -0.086700566 0.836598038
14516100 -0.073934748 0.832054257
14714300 -0.061294235 0.82730019
14912500 -0.049228981 0.82252413
15110600 -0.037585116 0.817617833
15308800 -0.025922002 0.812851011
15507000 -0.015059652 0.807621002
15705100 -0.004301496 0.802537202
15903300 0.006072025 0.797138154
16101500 0.016302645 0.791866183
16299600 0.025905726 0.786665737
16497800 0.035338778 0.78121066
16696000 0.04446372 0.775833964
16894100 0.053185988 0.770456075
17092300 0.061615828 0.764886975
17290500 0.07004363 0.759576857
17488600 0.078097738 0.754248082
17686800 0.085977345 0.748796641
17885000 0.093406595 0.743525326
18083100 0.100845575 0.738249301
18281300 0.107774049 0.733026623
18479500 0.114712968 0.727761864
18677600 0.12143322 0.722639322
18875800 0.12797971 0.717437684
19074000 0.133996009 0.712290883
19272100 0.140439882 0.707331061
19470300 0.146239131 0.702391922
19668500 0.151892781 0.697404563
19866700 0.157627567 0.692646026
20064868 0.163485243 0.687497675
20262968 0.168601363 0.682721495
20461168 0.173563927 0.677912235
20659368 0.178579762 0.673462867
20857468 0.183319821 0.668961524
21055668 0.188102826 0.664343953
21253868 0.192817941 0.660020828
21451968 0.197262287 0.655469655
21650168 0.201638862 0.651308715
21848368 0.205841168 0.647033751
22046468 0.210212752 0.642794251
22244668 0.214308574 0.638719141
22442868 0.218194022 0.634467303
22640968 0.222085326 0.630398929
22839168 0.225863903 0.626485884
23037368 0.229859441 0.62248075
23235468 0.232983022 0.6185202
23433668 0.236691325 0.614738047
23631868 0.240296304 0.610945403
23829968 0.243840336 0.607211768
24028168 0.247262284 0.60360521
24226368 0.250580221 0.599704504
24424468 0.253559589 0.596181452
24622668 0.256716638 0.592716813
24820868 0.25983411 0.589065909
25018968 0.262905299 0.58571428
25217168 0.265759557 0.582294106
25415368 0.268722295 0.579023003
25613468 0.271475434 0.575704097
25811668 0.27442497 0.57213217
26009868 0.276961088 0.569171667
26207968 0.279685974 0.565697729
26406168 0.282274365 0.562704622
26604368 0.284947991 0.559580266
26802468 0.287377387 0.556478202
27000668 0.289996385 0.553432464
27198868 0.292618244 0.550373136
27396968 0.294928848 0.547384202
27595168 0.297254383 0.544612407
27793368 0.299725681 0.541775822
27991468 0.302061587 0.538837552
28189668 0.304469406 0.536161899
28387868 0.306628257 0.533166229
28585968 0.30883184 0.530412495
28784168 0.310934394 0.527915656
28982368 0.313191115 0.525038063
29180468 0.315131455 0.522389888
29378668 0.317162156 0.519892513
29576868 0.319360196 0.517168462
29774968 0.321248173 0.514641046
29973168 0.323211193 0.51213634
30171368 0.325343042 0.509525418
30369468 0.327132552 0.506908774
30567668 0.329190582 0.504555225
30765868 0.331061571 0.501967072
30963968 0.332609355 0.499718993
31162168 0.334654092 0.49727407
31360368 0.336558401 0.495026022
31558468 0.338214218 0.492752283
31756668 0.339960485 0.490337193
31954868 0.341907948 0.488066226
32152968 0.343455225 0.485696554
32351168 0.345344364 0.483550876
32549368 0.346908658 0.481331437
32747468 0.348480075 0.479147017
32945668 0.350422799 0.477041214
33143868 0.351650685 0.474718183
33341968 0.353353232 0.472785741
33540168 0.355016231 0.470410346
33738368 0.356472194 0.468342781
33936468 0.358035087 0.466549962
34134668 0.359527558 0.464248061
34332868 0.36093682 0.462429344
34530968 0.362475663 0.460312783
34729168 0.364060223 0.458367735
34927368 0.36529383 0.456338852
35125468 0.366935014 0.454295992
35323668 0.368225872 0.452413529
35521868 0.369574397 0.450518846
35719968 0.371122509 0.448667168
35918168 0.372599542 0.446667194
36116368 0.373648405 0.444746226
36314468 0.375119805 0.442813575
36512668 0.376455545 0.441283911
36710868 0.377856522 0.439276456
36908968 0.379289418 0.437518924
37107168 0.380430966 0.43597266
37305368 0.381940335 0.434052944
37503468 0.383007764 0.432114869
37701668 0.384422481 0.430138915
37899868 0.385423094 0.428791105
38097968 0.386664599 0.427126616
38296168 0.387880712 0.425090909
38494368 0.389336109 0.423562437
38692468 0.390336692 0.421900451
38890668 0.391684532 0.420223563
39088868 0.392788261 0.418536305
39286968 0.393893212 0.41676712
39485168 0.395222187 0.415329128
39683368 0.396239101 0.413862317
39881568 0.397456437 0.411912739
40079736 0.398616492 0.410414755
40277836 0.39955601 0.408637642
40476036 0.400696456 0.407254368
40674136 0.401697009 0.405541479
40872336 0.402993232 0.404016196
41070536 0.404042631 0.402636975
41268636 0.405129581 0.401040405
41466836 0.406011492 0.399424493
41665036 0.407036453 0.397905856
41863136 0.408023536 0.396586447
42061336 0.409120529 0.394725441
42259536 0.410356104 0.393589526
42457636 0.41122958 0.391931653
42655836 0.412182062 0.390489041
42854036 0.413115203 0.388926833
43052136 0.414184808 0.387517899
43250336 0.41508165 0.386376321
43448536 0.416130393 0.384865492
43646636 0.417035967 0.383364349
43844836 0.418014168 0.381869733
44043036 0.418877184 0.380870729
44241136 0.41993007 0.379199713
44439336 0.420788854 0.377889156
44637536 0.421826362 0.376510232
44835636 0.422644317 0.375078469
45033836 0.423537462 0.373836129
45232036 0.424383491 0.372454702
45430136 0.425322264 0.371088027
45628336 0.426194697 0.369688868
45826536 0.427132636 0.368345499
46024636 0.428131967 0.366895228
46222836 0.429095625 0.365882843
46421036 0.429758429 0.364541679
46619136 0.430618464 0.363291352
46817336 0.431631803 0.361748725
47015536 0.432395219 0.360614895
47213636 0.433102697 0.359163939
47411836 0.433950871 0.358433306
47610036 0.435008049 0.356911689
47808136 0.435674935 0.355627626
48006336 0.436395823 0.354596227
48204536 0.437430143 0.353208869
48402636 0.438300013 0.351900786
48600836 0.438969373 0.350781172
48799036 0.439674288 0.349615722
48997136 0.440626561 0.348335683
49195336 0.441453248 0.347150564
49393536 0.442219018 0.346031725
49591636 0.442724555 0.344679445
49789836 0.443597942 0.34370473
49988036 0.444446772 0.342221558
50186136 0.44525662 0.341163575
50384336 0.445875436 0.339935183
50582436 0.446595728 0.33886373
50780636 0.447720855 0.337806761
50978836 0.448178738 0.336615025
51176936 0.448996126 0.335480839
51375136 0.449650704 0.334265738
51573336 0.450357913 0.333150207
51771436 0.451128304 0.332156598
51969636 0.451863586 0.330982625
52167836 0.452676743 0.329820603
52365936 0.453256547 0.328489035
52564136 0.454113572 0.327525585
52762336 0.454526126 0.326557368
52960436 0.455399841 0.32525134
53158636 0.455875903 0.324233978
53356836 0.456666707 0.323089092
53554936 0.457281708 0.322254747
53753136 0.458055287 0.32100293
53951336 0.458640396 0.319884568
54149436 0.459308207 0.318847149
54347636 0.460110962 0.317977428
54545836 0.460610896 0.316877186
54743936 0.461580127 0.315861612
54942136 0.461883664 0.314681261
55140336 0.462811261 0.313899666
55338436 0.463330268 0.312872916
55536636 0.463905334 0.311766445
55734836 0.464582979 0.310527056
55932936 0.465052992 0.30967921
56131136 0.465653151 0.308645904
56329336 0.466270089 0.307838976
56527436 0.467223525 0.306705176
56725636 0.467686712 0.30576387
56923836 0.468166261 0.304693222
57121936 0.46882835 0.30385667
57320136 0.469561219 0.302949845
57518336 0.470074206 0.301911324
57716436 0.470754146 0.300952464
57914636 0.471153616 0.300133764
58112836 0.471948206 0.298838853
58310936 0.472512513 0.297991752
58509136 0.473024219 0.29690507
58707336 0.473543375 0.296016901
58905436 0.474217951 0.295046359
59103636 0.474714487 0.294123977
59301836 0.475307106 0.293047249
59499936 0.475822508 0.292277246
59698136 0.476266086 0.29139921
59896336 0.47696805 0.290465861
60094600 0.477385729 0.289450556
60292700 0.478103995 0.288407713
60490900 0.47854638 0.287592232
60689100 0.479207456 0.286672741
60887200 0.47959119 0.285778462
61085400 0.480171293 0.284872561
61283600 0.480811178 0.283963769
61481700 0.481174677 0.282981902
61679900 0.481808841 0.282207429
61878100 0.482414901 0.281321048
62076200 0.482809752 0.280397623
62274400 0.483394771 0.279574126
62472600 0.483758956 0.278641819
62670700 0.484337598 0.277724802
62868900 0.485034167 0.27685979
63067100 0.485173523 0.27598232
63265200 0.48597607 0.274941146
63463400 0.486290186 0.274356961
63661600 0.48681572 0.273593485
63859700 0.487525999 0.272617399
64057900 0.487909376 0.271624624
64256100 0.488348394 0.270775884
64454200 0.488847792 0.269975095
64652400 0.489430189 0.268993943
64850600 0.490097731 0.268293112
65048700 0.490475445 0.267579942
65246900 0.490883916 0.266523212
65445100 0.491363823 0.265569984
65643200 0.492026388 0.264827758
65841400 0.492436051 0.264129638
66039600 0.492726653 0.263202846
66237700 0.493220776 0.262297987
66435900 0.493735045 0.261581033
66634100 0.494150608 0.260783493
66832200 0.494659125 0.259966552
67030400 0.495181828 0.258901864
67228600 0.495720058 0.258408159
67426700 0.495992571 0.257344305
67624900 0.496474742 0.256707698
67823100 0.496973603 0.255826562
68021200 0.497355431 0.254927963
68219400 0.497738569 0.254146337
68417600 0.498232543 0.253305524
68615700 0.498794436 0.252668797
68813900 0.499244511 0.251759767
69012100 0.499651253 0.250937074
69210200 0.500115215 0.250199973
69408400 0.500605821 0.249300673
69606600 0.501047074 0.248648196
69804700 0.501216351 0.248087555
70002900 0.501719057 0.247102946
70201100 0.502171456 0.246292829
70399200 0.502517521 0.24546279
70597400 0.503154098 0.244773238
70795600 0.503591835 0.244072631
70993700 0.503915488 0.24314481
71191900 0.504241049 0.242427513
71390100 0.504501104 0.241582557
71588200 0.505153 0.241039708
71786400 0.505645215 0.23993647
71984600 0.505735278 0.239362716
72182700 0.50636363 0.238648742
72380900 0.50670427 0.238041743
72579100 0.507095992 0.237045496
72777200 0.507482826 0.236534997
72975400 0.50801146 0.235559985
73173600 0.508295059 0.234988108
73371700 0.508874356 0.234347477
73569900 0.509148716 0.233420759
73768100 0.509553074 0.232511043
73966200 0.509919166 0.232115283
74164400 0.510327219 0.231311887
74362600 0.5107131 0.230336561
74560700 0.511046528 0.229866743
74758900 0.51121819 0.229078918
74957100 0.511693239 0.228287562
75155200 0.512052178 0.22766827
75353400 0.512491524 0.226936608
75551600 0.513011276 0.226083889
75749700 0.513263463 0.225683957
75947900 0.513416528 0.224683642
76146100 0.513896048 0.224059641
76344200 0.514110386 0.223176375
76542400 0.514569938 0.22247821
76740600 0.51505208 0.221831724
76938700 0.515408813 0.221212103
77136900 0.515497446 0.220431774
77335100 0.516038715 0.219891071
77533200 0.516459882 0.219087049
77731400 0.516874015 0.218195572
77929600 0.517085731 0.217680275
78127700 0.517443716 0.216861397
78325900 0.517820239 0.216191068
78524100 0.51796776 0.215740472
78722200 0.518331408 0.214910104
78920400 0.518676817 0.214070633
79118600 0.518996715 0.213355973
79316700 0.519306063 0.212829634
79514900 0.519858956 0.212250083
79713100 0.520269155 0.211357206
79911300 0.520241916 0.21075347
80109472 0.520577669 0.209929361
80307572 0.521301686 0.209361523
80505772 0.521081507 0.208903953
80703872 0.521667838 0.20836547
80902072 0.522102773 0.207187622
81100272 0.522246241 0.206764981
81298372 0.522329211 0.206059589
81496572 0.522933423 0.20525521
81694772 0.523250818 0.204569786
81892872 0.523783981 0.204002007
82091072 0.523954629 0.203225687
82289272 0.524058997 0.202767267
82487372 0.524468421 0.202079221
82685572 0.525117218 0.201517477
82883772 0.52537471 0.200924873
83081872 0.52556014 0.200305566
83280072 0.525811076 0.199817225
83478272 0.526048123 0.198704048
83676372 0.526340723 0.198183268
83874572 0.526651322 0.197536051
84072772 0.526904881 0.19707407
84270872 0.52730894 0.196337223
84469072 0.52757728 0.195787936
84667272 0.527642428 0.195016488
84865372 0.527989327 0.194574162
85063572 0.528335034 0.193612068
85261772 0.528632998 0.193159803
85459872 0.528790116 0.192708984
85658072 0.529458642 0.19175671
85856272 0.529788732 0.191252678
86054372 0.529900193 0.190691918
86252572 0.530120015 0.190048754
86450772 0.530514836 0.18941684
86648872 0.530652701 0.188928693
86847072 0.530788898 0.188249364
87045272 0.531364619 0.187437146
87243372 0.53137499 0.18691793
87441572 0.531901597 0.186506792
87639772 0.532135486 0.185844302
87837872 0.532703101 0.185193255
88036072 0.532742202 0.184565544
88234272 0.532671332 0.183853134
88432372 0.533477067 0.183401465
88630572 0.533693253 0.182775959
88828772 0.533682763 0.182140976
89026872 0.53401041 0.181560948
89225072 0.534294486 0.180769696
89423272 0.534540891 0.180217266
89621372 0.534863352 0.179640352
89819572 0.53498739 0.179234907
90017772 0.535168647 0.178526267
90215872 0.535770654 0.177990272
90414072 0.535996437 0.177184909
90612172 0.536301851 0.176921501
90810372 0.536434412 0.176175117
91008572 0.536275744 0.17544128
91206672 0.536929965 0.17491503
91404872 0.53724128 0.174368768
91603072 0.537586092 0.173777133
91801172 0.537765264 0.173343166
91999372 0.537697136 0.172630995
92197572 0.538071155 0.172167882
92395672 0.538527607 0.171548992
92593872 0.5388332 0.170878186
92792072 0.538789689 0.170284584
92990172 0.539241135 0.169607728
93188372 0.539120018 0.169202372
93386572 0.539752721 0.168525502
93584672 0.539837956 0.168045163
93782872 0.540169835 0.167340561
93981072 0.540407598 0.166768416
94179172 0.540154278 0.166256248
94377372 0.540952503 0.165844112
94575572 0.540993452 0.165214642
94773672 0.541376411 0.164715915
94971872 0.541463255 0.163989827
95170072 0.541795074 0.163294747
95368172 0.542005598 0.162829369
95566372 0.542406022 0.162121236
95764572 0.542661368 0.16150543
95962672 0.542580962 0.161178022
96160872 0.542977035 0.160640269
96359072 0.542919278 0.1600243
96557172 0.542911827 0.159383058
96755372 0.543328821 0.158956244
96953572 0.543392598 0.158537954
97151672 0.54393053 0.157451331
97349872 0.544017434 0.157124027
97548072 0.544432997 0.156687945
97746172 0.544344902 0.155930951
97944372 0.545195758 0.155677899
98142572 0.545185267 0.154995545
98340672 0.545313417 0.154539138
98538872 0.545340716 0.153809919
98737072 0.545624613 0.153391256
98935172 0.545857131 0.152899995
99133372 0.546156406 0.152250736
99331572 0.546279549 0.151572242
99529672 0.546127796 0.150990203
99727872 0.546738147 0.150607869
99926072 0.546958744 0.150105804
100124336 0.547183573 0.149532705
100322436 0.54737699 0.148947909
100520636 0.547652542 0.148487731
100718736 0.547956168 0.147936984
100916936 0.547900855 0.147262424
101115136 0.54834181 0.146848186
101313236 0.548356354 0.146482914
101511436 0.548865854 0.145717963
101709636 0.548957645 0.145060107
101907736 0.549141824 0.144777089
102105936 0.549179136 0.144168317
102304136 0.549676775 0.143677338
102502236 0.549728155 0.143076941
102700436 0.549849033 0.142683491
102898636 0.550332605 0.141880154
103096736 0.550279617 0.141542643
103294936 0.550401389 0.140995845
103493136 0.550647079 0.140406012
103691236 0.5509786 0.139899656
103889436 0.551126897 0.139444723
104087636 0.55158329 0.138725802
104285736 0.55167514 0.138186961
104483936 0.551903486 0.137871801
104682136 0.551952898 0.137385636
104880236 0.55218172 0.136913806
105078436 0.552216827 0.136283338
105276636 0.552643358 0.135632142
105474736 0.552892744 0.135134279
105672936 0.55299288 0.134623065
105871136 0.553088903 0.134119108
106069236 0.553358256 0.133563846
106267436 0.55357629 0.133120164
106465636 0.553791403 0.132590815
106663736 0.553907692 0.13208878
106861936 0.554061114 0.131470754
107060136 0.554247796 0.131092473
107258236 0.554508566 0.130334332
107456436 0.554715812 0.129922598
107654636 0.555134117 0.129323139
107852736 0.555091381 0.128888905
108050936 0.555104017 0.128255039
108249136 0.555182039 0.127989158
108447236 0.555406451 0.127256736
108645436 0.55574131 0.126865848
108843636 0.555566906 0.126435145
109041736 0.556068837 0.125873461
109239936 0.556504428 0.125413089
109438136 0.556306779 0.124792829
109636236 0.556534826 0.124446526
109834436 0.556763887 0.123920366
110032636 0.55683428 0.12340328
110230736 0.557010054 0.122831918
110428936 0.557180523 0.122398324
110627036 0.557589113 0.121800988
110825236 0.557775139 0.121367171
111023436 0.55784744 0.12082161
111221536 0.558218419 0.120187804
111419736 0.558015823 0.119973033
111617936 0.558404922 0.119185194
111816036 0.558813571 0.118920445
112014236 0.558709263 0.118129193
112212436 0.559197962 0.117792487
112410536 0.559224843 0.117365144
112608736 0.559387207 0.11658857
112806936 0.559371054 0.116277858
113005036 0.559637248 0.115949243
113203236 0.559502363 0.115172684
113401436 0.559969961 0.11481928
113599536 0.559930026 0.114519298
113797736 0.560151576 0.113927789
113995936 0.560208976 0.113418579
114194036 0.56028831 0.112719617
114392236 0.560728251 0.112313695
114590436 0.561060428 0.112121015
114788536 0.560991287 0.111417524
114986736 0.560843288 0.110991418
115184936 0.561273574 0.110291607
115383036 0.561318576 0.109780691
115581236 0.561594307 0.109483987
115779436 0.561907529 0.10879606
115977536 0.561747014 0.108346231
116175736 0.562170028 0.107932232
116373936 0.562102973 0.107583925
116572036 0.562359392 0.107100382
116770236 0.562342584 0.106555789
116968436 0.562374532 0.105878844
117166536 0.562842607 0.105691134
117364736 0.562924742 0.105023205
117562936 0.563007831 0.104632578
117761036 0.56332463 0.10415098
117959236 0.563014328 0.103884905
118157436 0.563610851 0.103268563
118355536 0.563516736 0.102780915
118553736 0.563912034 0.102445855
118751936 0.564076125 0.101807557
118950036 0.564073622 0.10120505
119148236 0.56456387 0.100854642
119346436 0.564569354 0.100446499
119544536 0.564636051 0.099818959
119742736 0.564501404 0.099502779
